"Freq [GHz]","re(S(1,1)) []","im(S(1,1)) []","re(S(2,1)) []","im(S(2,1)) []","re(partialS(1,1,L1)) []","im(partialS(1,1,L1)) []","re(partialS(2,1,L1)) []","im(partialS(2,1,L1)) []","re(partialS(1,1,L2)) []","im(partialS(1,1,L2)) []","re(partialS(2,1,L2)) []","im(partialS(2,1,L2)) []","re(partialS(1,1,L3)) []","im(partialS(1,1,L3)) []","re(partialS(2,1,L3)) []","im(partialS(2,1,L3)) []","re(partialS(1,1,M01)) []","im(partialS(1,1,M01)) []","re(partialS(2,1,M01)) []","im(partialS(2,1,M01)) []","re(partialS(1,1,M12)) []","im(partialS(1,1,M12)) []","re(partialS(2,1,M12)) []","im(partialS(2,1,M12)) []","re(partialS(1,1,M23)) []","im(partialS(1,1,M23)) []","re(partialS(2,1,M23)) []","im(partialS(2,1,M23)) []","re(partialS(1,1,M34)) []","im(partialS(1,1,M34)) []","re(partialS(2,1,M34)) []","im(partialS(2,1,M34)) []"
5,-0.392820797291713,0.919615039684649,-8.74964313897478E-007,-3.71745396993575E-007,0.596591444107543,0.254838727744886,-3.21308278646812E-006,-7.14558452486764E-007,0.00564336341003164,0.0024106070662053,-1.2343120324485E-006,-5.47301991577633E-007,0.000519955126026964,0.00022210292015632,-1.37274515620188E-006,-6.11832980777178E-007,8.24132347450266,3.52034614297123,-2.28912518148111E-005,-4.79039099545713E-007,0.271463452944125,0.115957749061395,-1.58286399512694E-005,-6.41975469600837E-006,0.0022517432650847,0.000961849827819023,-1.65622578542152E-005,-7.03426269430718E-006,1.21051553629493E-005,5.17080260079557E-006,-8.65719941525651E-006,-3.67816393424524E-006
5.001,-0.391652814412656,0.920112774879831,-8.82815413142865E-007,-3.73756619646956E-007,0.598630399153602,0.254907053130524,-3.9140962562323E-006,-3.76241975662825E-007,0.00569696485985308,0.00242186194127547,-9.79193329823746E-007,-3.3352243981674E-007,0.000522300339353969,0.000221537080302746,-1.50844250742062E-006,-6.53673607129033E-007,8.25502691117343,3.51418457027773,-2.29412421794678E-005,-1.56359163761133E-007,0.272475836980471,0.115982431840755,-1.67032350832281E-005,-6.21470307410384E-006,0.00227620506598853,0.000970488153643109,-1.76221797493272E-005,-7.16734217968914E-006,1.25759651080584E-005,5.34790949773123E-006,-9.04659553112459E-006,-3.75635944692115E-006
5.002,-0.390483309429036,0.920609407633571,-8.9074183406785E-007,-3.7577653819908E-007,0.600676894046925,0.254972442819109,-4.61457274057258E-006,-3.64836129563938E-008,0.00575077023686556,0.00243307172806419,-7.23825761033308E-007,-1.20100326933303E-007,0.000524647389271961,0.000220966674025018,-1.64453667996685E-006,-6.95288139789962E-007,8.26875493565323,3.5079954899268,-2.29914673919882E-005,1.66378049184766E-007,0.273492455256344,0.116005981970412,-1.75787587860399E-005,-6.00810232489659E-006,0.00230076840477767,0.000979105128860405,-1.86835758396292E-005,-7.298902555254E-006,1.30477665942183E-005,5.5244331936294E-006,-9.43665963151203E-006,-3.83404962230175E-006
5.003,-0.38931228002496,0.921104934898151,-8.98744352834926E-007,-3.77805145621131E-007,0.602730958405202,0.255034873758444,-5.31450561280097E-006,3.04717647493209E-007,0.00580478088709883,0.00244423599055344,-4.6821325050432E-007,9.29604011384704E-008,0.000526996278223361,0.000220391688874338,-1.78103004380081E-006,-7.3667554840334E-007,8.28250760679881,3.50177877573574,-2.30419442431609E-005,4.891729295814E-007,0.274513327711447,0.116028388415607,-1.84552168951779E-005,-5.79994914213294E-006,0.00232543396282863,0.000987700531644637,-1.97464535632387E-005,-7.42893797702072E-006,1.35205673468668E-005,5.7003707967312E-006,-9.82739692762669E-006,-3.91123261769823E-006
5.004,-0.38813972387543,0.921599353612957,-9.0682375428677E-007,-3.79842433178231E-007,0.604792621978851,0.255094322729648,-6.0138882286115E-006,6.4736276917754E-007,0.00585899816752947,0.00245535428826642,-2.12359677469566E-007,3.05655852744916E-007,0.000529347008759535,0.000219812112387429,-1.9179250227085E-006,-7.77834761765527E-007,8.29628498359341,3.49553430083052,-2.30926897809732E-005,8.12025959671951E-007,0.27553847439374,0.116049640048446,-1.93326153639683E-005,-5.59024022302774E-006,0.0023502024271827,0.000996274137876052,-2.08108204790277E-005,-7.55744258834779E-006,1.39943749846076E-005,5.87571939530028E-006,-1.02188127007452E-005,-3.98790658370774E-006
5.005,-0.386965638646302,0.922092660704396,-9.14980831748886E-007,-3.81888391370608E-007,0.606861914651651,0.255150766345826,-6.71271394210713E-006,9.91452701206027E-007,0.00591342344614781,0.00246642617617539,4.37308589051993E-008,5.17982006329737E-007,0.000531699583542906,0.00021922793210169,-2.05522404816975E-006,-8.18764716192369E-007,8.31008712514644,3.48926193764133,-2.31437213067621E-005,1.13493770535728E-006,0.276567915460095,0.116069725647063,-2.0210960258497E-005,-5.37897227007955E-006,0.00237507449059744,0.00100482572111879,-2.1876684250908E-005,-7.68441051284502E-006,1.44691972215154E-005,6.05047605815056E-006,-1.06109123081629E-005,-4.0640696597334E-006
5.006,-0.385790021994244,0.922584853085818,-9.23216387498853E-007,-3.83943009189839E-007,0.608938866441414,0.255204181050795,-7.41097610380277E-006,1.33698835210513E-006,0.00596805810211738,0.00247745120468086,3.0005430620692E-007,7.29934891308635E-007,0.000534054005352035,0.000218639135560504,-2.19292963072237E-006,-8.59464361033081E-007,8.32391409069333,3.48296155789816,-2.31950563823117E-005,1.45790882812652E-006,0.277601671176975,0.116088633894816,-2.10902577706798E-005,-5.16614199074864E-006,0.00240005085159628,0.00101335505258536,-2.29440526651771E-005,-7.80983585675575E-006,1.49450418695425E-005,6.22463783791779E-006,-1.10037011791619E-005,-4.13971997984159E-006
5.007,-0.384612871566696,0.92307592765743,-9.31531232921235E-007,-3.86006275168652E-007,0.611023507500618,0.255254543117756,-8.10866806654882E-006,1.68397059799209E-006,0.00602290352580324,0.00248842891954761,5.56606495587515E-007,9.41510542878928E-007,0.000536410277088721,0.00021804571030259,-2.33104424495046E-006,-8.99932609297331E-007,8.3377659395952,3.47663303262638,-2.32467128296421E-005,1.78094007991488E-006,0.278639761921096,0.11610635337942,-2.19705142083003E-005,-4.95174609713278E-006,0.00242513221453268,0.00102186190112533,-2.401293362468E-005,-7.93371270828539E-006,1.54219168387305E-005,6.39820176461518E-006,-1.13971848225988E-005,-4.21485566621571E-006
5.008,-0.383434185001824,0.923565881306213,-9.39926187604561E-007,-3.88078176001842E-007,0.613115868117076,0.255301828647962,-8.80578317680077E-006,2.03240029653909E-006,0.00607796111894249,0.00249935886184634,8.1338323668102E-007,1.15270491121184E-006,0.000538768401767148,0.00021744764385664,-2.46957047223095E-006,-9.40168403460058E-007,8.35164273133866,3.47027623214215,-2.32987087393695E-005,2.10403230681443E-006,0.279682208180105,0.116122872592124,-2.28517360058838E-005,-4.73578130391333E-006,0.00245031928963941,0.00103034603318267,-2.50833351501968E-005,-8.0560351377636E-006,1.58998301391955E-005,6.5711648481555E-006,-1.17913688223056E-005,-4.28947483256027E-006
5.009,-0.382253959928482,0.924054710905845,-9.48402081400775E-007,-3.90158697384533E-007,0.615215978714594,0.255346013569388,-9.50231478014398E-006,2.38227825712347E-006,0.00613323229470248,0.00251024056789866,1.07038014936431E-006,1.36351392474854E-006,0.00054112838253698,0.00021684492376659,-2.6085108746537E-006,-9.80170677075008E-007,8.36554452553551,3.46389102604796,-2.3351062471752E-005,2.42718645280204E-006,0.280729030553257,0.116138179926859,-2.37339297219826E-005,-4.51824433476199E-006,0.002475612793087,0.00103880721277256,-2.61552653882723E-005,-8.17679719501011E-006,1.6378789883054E-005,6.74352408355252E-006,-1.21862588405065E-005,-4.36357558607807E-006
5.01,-0.381072193966166,0.924542413316606,-9.5695975257142E-007,-3.9224782432519E-007,0.617323869853635,0.255387073635375,-1.01982562181012E-005,2.73360526587931E-006,0.00618871847781966,0.00252107356923433,1.32759293136665E-006,1.57393356288081E-006,0.000543490222659201,0.00021623753756631,-2.74786807200397E-006,-1.01993834923554E-006,8.37947138192247,3.45747728322806,-2.3403792656516E-005,2.75040356103216E-006,0.281780249752108,0.116152263679355,-2.46171020444081E-005,-4.29913191424668E-006,0.00250101344704202,0.0010472452014563,-2.72287326050993E-005,-8.29599291312354E-006,1.68588042836966E-005,6.91527644150033E-006,-1.25818606187914E-005,-4.43715602220138E-006
5.011,-0.379888884724976,0.925028985385306,-9.65600048684067E-007,-3.94345539760901E-007,0.619439572231981,0.255424984423263,-1.08936008368561E-005,3.08638208521262E-006,0.00624442110469686,0.00253185739251489,1.58501706726043E-006,1.78395968317996E-006,0.000545853925536579,0.000215625472794237,-2.8876447530015E-006,-1.05947030799434E-006,8.39342336036088,3.45103487184383,-2.34569182061792E-005,3.07368477758993E-006,0.28283588660119,0.116165112046295,-2.55012597887391E-005,-4.07844077198977E-006,0.00252652197972092,0.00105565975830961,-2.83037451940975E-005,-8.41361630584775E-006,1.73398816588383E-005,7.08641887341413E-006,-1.29781799793869E-005,-4.51021422524637E-006
5.012,-0.378704029805568,0.925514423945189,-9.74323827195471E-007,-3.96451825716108E-007,0.621563116685407,0.255459721333026,-1.1588341979699E-005,3.440609424659E-006,0.00630034162348251,0.00254259155949983,1.84264809638866E-006,1.99358820312736E-006,0.000548219494700853,0.000215008716981341,-3.02784357634944E-006,-1.098765503949E-006,8.40740052083644,3.44456365932918,-2.35104583011915E-005,3.39703134850751E-006,0.283895962038727,0.116176713124424,-2.63864099061918E-005,-3.85616763991284E-006,0.00255213912544964,0.00106405063989075,-2.93803116807387E-005,-8.52966136744609E-006,1.78220304316595E-005,7.25694830953088E-006,-1.33752228262911E-005,-4.58274827474784E-006
5.013,-0.377517626799115,0.925998725815852,-9.83131954548041E-007,-3.98566662765391E-007,0.623694534188353,0.255491259585884,-1.22824729981581E-005,3.7962879791185E-006,0.00635648149421866,0.00255327558696006,2.10048137602587E-006,2.20281497269898E-006,0.000550586933807213,0.000214387257660445,-3.16846732507992E-006,-1.13782282360419E-006,8.42140292345881,3.43806351238588,-2.35644324155639E-005,3.72044462967112E-006,0.284960497117305,0.116187054909669,-2.72725594762548E-005,-3.63230925728148E-006,0.00257786562472486,0.00107241760021556,-3.04584407154616E-005,-8.64412207341785E-006,1.83052591325507E-005,7.42686166041392E-006,-1.37729951465613E-005,-4.65475623551947E-006
5.014,-0.376329673287262,0.92648188780316,-9.92025307498617E-007,-4.00690030451973E-007,0.625833855854595,0.255519574222904,-1.2975987226112E-005,4.15341840548303E-006,0.00641284218895235,0.00256390898664458,2.35851225403127E-006,2.41163585621692E-006,0.000552956246663543,0.000213761082376916,-3.30951874693815E-006,-1.17664119401486E-006,8.43543062846142,3.43153429697886,-2.36188603007985E-005,4.04392608601198E-006,0.286029513004594,0.116196125296233,-2.81597157225833E-005,-3.40686236830494E-006,0.00260370222426903,0.00108076039072569,-3.15381410803256E-005,-8.75699238121966E-006,1.87895764011667E-005,7.59615581489808E-006,-1.41715030098618E-005,-4.72623616558687E-006
5.015,-0.375140166842082,0.926963906699156,-1.00100477178859E-006,-4.02821906642031E-007,0.627981112937935,0.255544640103585,-1.3668878022793E-005,4.51200132468623E-006,0.00646942519181013,0.0025744912652182,2.61673596836603E-006,2.62004665935084E-006,0.000555327437203559,0.000213130178651192,-3.45100063159776E-006,-1.21521950559354E-006,8.44948369620105,3.42497587833147,-2.36737620079022E-005,4.36747729192471E-006,0.287103030984057,0.116203912075712,-2.90478860014873E-005,-3.17982371693228E-006,0.00262964967709303,0.00108907876025606,-3.26194216979633E-005,-8.86826622394977E-006,1.92749909844748E-005,7.7648276386161E-006,-1.45707525741414E-005,-4.79718611074021E-006
5.016,-0.373949105026035,0.927444779281973,-1.0100712439028E-006,-4.04962268156468E-007,0.630136336832874,0.255566431904446,-1.43611387317562E-005,4.87203732096826E-006,0.00652623199913765,0.00258502192418174,2.875147664942E-006,2.82804315630113E-006,0.000557700509513433,0.000212494534024243,-3.5929158827013E-006,-1.25355663408437E-006,8.46356218715754,3.41838812092073,-2.37291578700843E-005,4.69109993199577E-006,0.28818107245565,0.116210402936161,-2.9937077814751E-005,-2.95119005102818E-006,0.00265570874255588,0.00109737245500927,-3.37022916202918E-005,-8.9779375200627E-006,1.97615117442573E-005,7.93287397698744E-006,-1.49707500800205E-005,-4.86760410840621E-006
5.017,-0.372756485391922,0.927924502315748,-1.01922562963223E-006,-4.0711108969609E-007,0.632299559075301,0.255584924117587,-1.505276272915E-005,5.23352695991405E-006,0.00658326411961269,0.00259550045983499,3.13374245213137E-006,3.03562116283084E-006,0.000560075467824998,0.000211854136037507,-3.73526737443828E-006,-1.29165151243633E-006,8.47766616193339,3.41177088847252,-2.37850685235902E-005,5.0147958119055E-006,0.289263658936549,0.116215585461189,-3.08272988050852E-005,-2.72095812675246E-006,0.0026818801864261,0.00110564121851767,-3.47867600438272E-005,-9.08600016310573E-006,2.02491476518295E-005,8.10029165285429E-006,-1.53715018588253E-005,-4.9374881829108E-006
5.018,-0.37156230548284,0.92840307255053,-1.02846884551738E-006,-4.09268345114538E-007,0.634470811343181,0.255600091049238,-1.57437433522635E-005,5.59647075939615E-006,0.00664052307436004,0.00260592636320497,3.39251533197672E-006,3.24277642659627E-006,0.000562452316509606,0.000211208972216764,-3.87805805111003E-006,-1.32950302027269E-006,8.49179568125345,3.40512404395674,-2.38415149064254E-005,5.33856685426805E-006,0.290350812061866,0.116219447129016,-3.17185567606371E-005,-2.4891247012604E-006,0.00270816478094236,0.00111388479161977,-3.58728362983939E-005,-9.19244802975694E-006,2.07379077954239E-005,8.26707746634263E-006,-1.57730143288074E-005,-5.006836349355E-006
5.019,-0.370366562832142,0.928880486722193,-1.03780181762229E-006,-4.1143400698509E-007,0.636650125457246,0.255611906818313,-1.64340739789919E-005,5.9608692061978E-006,0.00669801039705021,0.00261629911997474,3.65146121351427E-006,3.44950465435608E-006,0.000564831060098147,0.000210559030098927,-4.02129087198633E-006,-1.36711003910136E-006,8.50595080596453,3.39844744958247,-2.38985182546051E-005,5.66241510155154E-006,0.291442553585383,0.116221975311548,-3.2610859621281E-005,-2.25568653007637E-006,0.00273456330488062,0.00112210291241937,-3.69605298677336E-005,-9.29727497348656E-006,2.12278013779015E-005,8.43322819352528E-006,-1.61752940002887E-005,-5.07564661179582E-006
5.02,-0.369169254963389,0.929356741552344,-1.04722548287497E-006,-4.13608045413812E-007,0.638837533381694,0.255620345354917,-1.71237479879393E-005,6.32672276270176E-006,0.00675572763405146,0.00262661821043787,3.91057494449014E-006,3.65580157596917E-006,0.000567211703276959,0.000209904297221308,-4.16496889455568E-006,-1.40447143568281E-006,8.52013159703503,3.39174096679304,-2.39561001169207E-005,5.98634272395405E-006,0.292538905380274,0.116223157273416,-3.35042154746189E-005,-2.02064038249278E-006,0.00276107654360806,0.00113029531626045,-3.80498503704532E-005,-9.40047482780692E-006,2.17188377214874E-005,8.59874058971898E-006,-1.65783474748183E-005,-5.14391696273641E-006
5.021,-0.367970379390306,0.92983183374823,-1.05674078880587E-006,-4.15790429851622E-007,0.641033067224888,0.25562538039889,-1.78127587499953E-005,6.69403183674211E-006,0.00681367634449262,0.00263688310942673,4.16985127901191E-006,3.86166288026631E-006,0.000569594250889111,0.000209244761126986,-4.30909516945419E-006,-1.44158612302327E-006,8.53433811555452,3.38500445626104,-2.40142823536998E-005,6.31035201216909E-006,0.293639889439851,0.116222980171029,-3.43986325621256E-005,-1.7839830219998E-006,0.0027877052891572,0.00113846173569074,-3.91408075811178E-005,-9.5020414075596E-006,2.2211026265867E-005,8.76361138410655E-006,-1.69821814469727E-005,-5.21164538305372E-006
5.022,-0.366769933616736,0.930305760002653,-1.06634869296223E-006,-4.17981127908243E-007,0.643236759240053,0.255626985498278,-1.85010996615825E-005,7.06279682069764E-006,0.00687185810045192,0.00264709328623842,4.42928490013081E-006,4.06708425160585E-006,0.000571978707928946,0.000208580409341915,-4.45367280154244E-006,-1.47845293279929E-006,8.54857042273341,3.37823777788346,-2.40730871380373E-005,6.63444539053598E-006,0.2947455278783,0.116221431051599,-3.52941192844592E-005,-1.54571121853526E-006,0.00281445034028404,0.00114660190042786,-4.02334114189757E-005,-9.60196849885191E-006,2.27043765722745E-005,8.92783728302943E-006,-1.73868027024129E-005,-5.27882984236743E-006
5.023,-0.365567915136602,0.930778516993867,-1.07605016414795E-006,-4.2018010523457E-007,0.645448641825983,0.255625134007852,-1.91887641106294E-005,7.43301806173285E-006,0.00693027448702573,0.00265724820458647,4.68887037362505E-006,4.2720612963535E-006,0.000574365079570298,0.000207911229407181,-4.59870493900143E-006,-1.51507076512771E-006,8.5628285799024,3.37144079077657,-2.41325369632239E-005,6.95862541693829E-006,0.295855842931427,0.116218496852173,-3.61906841971414E-005,-1.30582174218628E-006,0.00284131250253488,0.00115471553733044,-4.1327671960915E-005,-9.70024987337421E-006,2.31988983251302E-005,9.0914149689439E-006,-1.7792218128754E-005,-5.34546829808462E-006
5.024,-0.364364321433849,0.931250101385496,-1.08584618237899E-006,-4.22387326589259E-007,0.647668747527755,0.255619799087565,-1.98757455126769E-005,7.80469587909674E-006,0.00698892710247239,0.00266734732251459,4.94860217052535E-006,4.47658966209898E-006,0.000576753371147638,0.000207237208864209,-4.74419481800792E-006,-1.55143847756806E-006,8.57711264851224,3.36461335327091,-2.41926546440132E-005,7.28289477619555E-006,0.296970856957417,0.116214164398643,-3.70883360167674E-005,-1.06431137039876E-006,0.00286829258831206,0.00116280237035658,-4.24235994317383E-005,-9.79687927520646E-006,2.3694601333164E-005,9.25434109861767E-006,-1.81984347044474E-005,-5.41155869561846E-006
5.025,-0.363159149982411,0.931720509826431,-1.09573773732851E-006,-4.24602753784778E-007,0.649897109037428,0.255610953701018,-2.0562037279621E-005,8.17783055296147E-006,0.00704781755831577,0.00267739009236123,5.20847474495167E-006,4.68066497339972E-006,0.000579143588161424,0.000206558335247996,-4.89014567400227E-006,-1.58755491279314E-006,8.5914226901331,3.3577553229062,-2.42534633240972E-005,7.60725629978134E-006,0.298090592437578,0.116208420404753,-3.79870836262036E-005,-8.21176880083651E-007,0.00289539141694343,0.0011708621205375,-4.35212042204473E-005,-9.89185043061571E-006,2.41914955300186E-005,9.41661230417611E-006,-1.8605459511374E-005,-5.47709896816498E-006
5.026,-0.361952398246158,0.932189738950741,-1.10572583172829E-006,-4.26826348154438E-007,0.652133759194775,0.255598570613924,-2.12476328398025E-005,8.55242232085265E-006,0.00710694747952322,0.00268737596063987,5.46848239591482E-006,4.8842827488105E-006,0.000581535736294952,0.000205874596089767,-5.03656080854934E-006,-1.62341894310222E-006,8.60575876645429,3.35086655642623,-2.43149864823754E-005,7.93171295646312E-006,0.299215071977114,0.116201251471091,-3.88869360743534E-005,-5.76415049723239E-007,0.00292260981474069,0.00117889450593157,-4.46204968763839E-005,-9.98515703652334E-006,2.46895909787806E-005,9.57822519294928E-006,-1.90132997271119E-005,-5.5420870360346E-006
5.027,-0.360744063678854,0.932657785377574,-1.11581147787524E-006,-4.29058069036602E-007,0.654378730987987,0.255582622392527,-2.19325256424894E-005,8.92847139499785E-006,0.00716631850454557,0.00269730436801933,5.72861933121678E-006,5.08743862163749E-006,0.000583929821404943,0.000205185978945327,-5.18344356171943E-006,-1.65902940919926E-006,8.62012093928366,3.34394690977367,-2.43772479218629E-005,8.25626785811634E-006,0.300344318305883,0.116192644084082,-3.97879025768045E-005,-3.30022659196291E-007,0.00294994861508217,0.00118689924160504,-4.57214881049166E-005,-1.00767927763144E-005,2.51888978705778E-005,9.73917634339083E-006,-1.94219626348493E-005,-5.60652080731167E-006
