! Touchstone file from project Ka_PF
! Exported from HFSS 15.0.0
! Variables:
!  AA = 0.34in
!  BB = 0.145in
!  M01 = 0.1649in
!  M11 = 0.2151in
!  M12 = 0.1073in
!  M22 = 0.2385in
!  PL = 0.3in
!  RR = 0.035in
!  TT = 0.04in
!Data is not renormalized
# GHZ S DB
! Modal data exported
! Port[1] = 1:1
! Port[2] = 2:1
26.5             -7.33888703434218E-005 119.228433424366 -47.7215774828098 -150.749729948551 -47.7215774828082 -150.749729948557 -7.33888754572936E-005 119.272106679675 
! Gamma  !      -0               419.682061644267 -0               419.682059588134 
! Port Impedance  262.306700357186 0                262.306930402304 0                

26.509           -7.14188031420986E-005 118.889827634519 -47.5928607463017 -151.088309199907 -47.5928607463001 -151.088309199914 -7.14066998003791E-005 118.933554013831 
! Gamma  !      0                419.931653797321 0                419.93165174241  
! Port Impedance  262.239827039309 0                262.240057043122 0                

26.518           -6.97843966655252E-005 118.550484753331 -47.4637054728506 -151.427625428441 -47.463705472849 -151.427625428448 -6.9760888435365E-005 118.594264202737 
! Gamma  !      0                420.1811823672   0                420.18118031351  
! Port Impedance  262.173072841328 0                262.173302803895 0                

26.527           -6.84804860599597E-005 118.210394681051 -47.3341081171457 -151.767688748396 -47.3341081171442 -151.767688748404 -6.84462579539653E-005 118.254227141811 
! Gamma  !      0                420.430647467117 0                420.430645414645 
! Port Impedance  262.106437450282 0                262.106667371664 0                

26.536           -6.75021464857098E-005 117.86954714623  -47.204065090546 -152.108509445384 -47.2040650905446 -152.108509445392 -6.74578651916495E-005 117.913432554623 
! Gamma  !      0                420.680049209984 0                420.680047158729 
! Port Impedance  262.039920554317 0                262.040150434575 0                

26.545           -6.68446974169898E-005 117.527931702006 -47.0735727603705 -152.450097980107 -47.073572760369 -152.450097980115 -6.67910115178441E-005 117.571869989172 
! Gamma  !      0                420.929387708419 0                420.929385658379 
! Port Impedance  261.973521842682 0                261.973751681874 0                

26.554           -6.65037071685573E-005 117.185537722285 -46.9426274491736 -152.792464992184 -46.9426274491723 -152.792464992192 -6.64412473741292E-005 117.229528814064 
! Gamma  !      0                421.178663074746 0                421.178661025919 
! Port Impedance  261.907241005721 0                261.907470803909 0                

26.563           -6.64749977147024E-005 116.842354397821 -46.8112254340071 -153.135621304079 -46.8112254340057 -153.135621304089 -6.64043770816444E-005 116.886398214587 
! Gamma  !      0                421.427875420992 0                421.427873373376 
! Port Impedance  261.841077734873 0                261.841307492116 0                

26.572           -6.67546497755157E-005 116.498370732195 -46.679362945665 -153.479577925133 -46.6793629456636 -153.479577925143 -6.66764639350609E-005 116.542467188686 
! Gamma  !      0                421.677024858891 0                421.677022812486 
! Port Impedance  261.775031722663 0                261.775261439019 0                

26.581           -6.73390082041873E-005 116.153575537684 -46.5470361679143 -153.824346055697 -46.547036167913 -153.824346055707 -6.72538355831194E-005 116.197724542824 
! Gamma  !      0                421.926111499889 0                421.926109454692 
! Port Impedance  261.709102662696 0                261.709332338227 0                

26.59            -6.82246877052293E-005 115.807957431017 -46.4142412367095 -154.16993709139 -46.4142412367082 -154.169937091401 -6.81330897410579E-005 115.852158887735 
! Gamma  !      0                422.175135455135 0                422.175133411144 
! Port Impedance  261.64329024966  0                261.643519884424 0                

26.599           -6.94085788546945E-005 115.461504829022 -46.2809742393908 -154.516362627457 -46.2809742393895 -154.516362627468 -6.93111002233561E-005 115.505758634062 
! Gamma  !      0                422.424096835493 0                422.424094792707 
! Port Impedance  261.57759417931  0                261.577823773367 0                

26.608           -7.08878544985723E-005 115.11420594415  -46.1472312138654 -154.863634463258 -46.1472312138642 -154.863634463269 -7.07850233305519E-005 115.158511987876 
! Gamma  !      0                422.672995751535 0                422.672993709952 
! Port Impedance  261.512014148474 0                261.512243701882 0                

26.617           -7.26599764994706E-005 114.766048779876 -46.0130081477721 -155.211764606867 -46.0130081477709 -155.211764606879 -7.25523045968782E-005 114.810406946071 
! Gamma  !      0                422.921832313546 0                422.921830273165 
! Port Impedance  261.446549855039 0                261.446779367859 0                

26.626           -7.472270288848E-005 114.417021125977 -45.8783009776281 -155.560765279814 -45.8783009776269 -155.560765279825 -7.46106859421199E-005 114.461431291636 
! Gamma  !      0                423.170606631525 0                423.170604592342 
! Port Impedance  261.381200997955 0                261.381430470244 0                

26.635           -7.70740954145096E-005 114.06711055368  -45.7431055879578 -155.910648921932 -45.7431055879566 -155.910648921943 -7.69582132161206E-005 114.111572588797 
! Gamma  !      0                423.419318815182 0                423.419316777197 
! Port Impedance  261.315967277222 0                261.31619670904  0                

26.644           -7.97125275354558E-005 113.716304410674 -45.6074178104035 -156.261428196369 -45.6074178104023 -156.261428196381 -7.95932441995871E-005 113.760818178017 
! Gamma  !      0                423.667968973945 0                423.667966937157 
! Port Impedance  261.250848393892 0                261.251077785297 0                

26.653           -8.26366928627807E-005 113.364589815983 -45.471233422817 -156.613115994713 -45.4712334228158 -156.613115994725 -8.25144570322686E-005 113.409155170867 
! Gamma  !      0                423.916557216957 0                423.916555181363 
! Port Impedance  261.185844050059 0                261.18607340111  0                

26.662           -8.58456140971143E-005 113.011953654697 -45.3345481483321 -156.965725442274 -45.334548148331 -156.965725442285 -8.57208591591592E-005 113.056570444746 
! Gamma  !      0                424.165083653078 0                424.165081618677 
! Port Impedance  261.120953948859 0                261.121183259615 0                

26.671           -8.93386524568137E-005 112.658382572554 -45.1973576544169 -157.319269903509 -45.1973576544158 -157.31926990352 -8.92117967542301E-005 112.70305063746  
! Gamma  !      0                424.413548390886 0                424.413546357676 
! Port Impedance  261.056177794463 0                261.056407064981 0                

26.68            -9.31155176737402E-005 112.30386297037  -45.0596575519063 -157.673762987603 -45.0596575519052 -157.673762987615 -9.29869647084867E-005 112.348582141637 
! Gamma  !      0                424.661951538677 0                424.661949506656 
! Port Impedance  260.991515292072 0                260.991744522412 0                

26.689           -9.71762785186532E-005 111.94838099831  -44.921443394013 -158.029218554211 -44.9214433940119 -158.029218554223 -9.7046417172715E-005 111.993151098996 
! Gamma  !      0                424.910293204469 0                424.910291173636 
! Port Impedance  260.926966147915 0                260.927195338133 0                

26.698           -0.000101521373978699 111.591922549998 -44.782710675318 -158.385650719349 -44.782710675317 -158.38565071936 -0.000101390578711822 111.636743394441 
! Gamma  !      0                425.158573495999 0                425.158571466352 
! Port Impedance  260.86253006924  0                260.862759219396 0                

26.707           -0.000106151625024322 111.234473256455 -44.6434548307386 -158.743073861474 -44.6434548307375 -158.743073861486 -0.000106020256084278 111.279344649999 
! Gamma  !      0                425.406792520727 0                425.406790492264 
! Port Impedance  260.798206764314 0                260.798435874465 0                

26.716           -0.000111068247083264 110.876018479863 -44.5036712344739 -159.101502627723 -44.5036712344728 -159.101502627735 -0.000110936650707432 110.920940218566 
! Gamma  !      0                425.654950385835 0                425.654948358554 
! Port Impedance  260.733995942417 0                260.734225012621 0                

26.725           -0.000116272863195612 110.516543307152 -44.3633551989277 -159.460951940344 -44.3633551989266 -159.460951940355 -0.000116141371821239 110.561515177492 
! Gamma  !      0                425.903047198229 0                425.90304517213  
! Port Impedance  260.669897313837 0                260.670126344151 0                

26.734           -0.000121767517960831 110.156032543396 -44.2225019736076 -159.821437003298 -44.2225019736065 -159.82143700331 -0.000121636450418889 110.201054321959 
! Gamma  !      0                426.151083064542 0                426.151081039622 
! Port Impedance  260.605910589864 0                260.606139580346 0                

26.743           -0.000127554692233375 109.794470705021 -44.0811067439996 -160.182973309076 -44.0811067439986 -160.182973309087 -0.000127424353968456 109.839542158184 
! Gamma  !      0                426.399058091129 0                426.399056067386 
! Port Impedance  260.542035482791 0                260.542264433498 0                

26.752           -0.000133637318708675 109.431842012806 -43.9391646304183 -160.545576645697 -43.9391646304173 -160.545576645708 -0.000133508001954522 109.476962896409 
! Gamma  !      0                426.646972384073 0                426.646970361507 
! Port Impedance  260.478271705903 0                260.478500616893 0                

26.761           -0.000140018798359005 109.068130384686 -43.7966706868312 -160.90926310392 -43.7966706868302 -160.909263103931 -0.00013989078236033 109.113300443689 
! Gamma  !      0                426.894826049187 0                426.894824027795 
! Port Impedance  260.414618973477 0                260.414847844807 0                

26.77            -0.000146703017847511 108.703319428334 -43.6536198996573 -161.274049084673 -43.6536198996563 -161.274049084683 -0.000146576569048057 108.748538396467 
! Gamma  !      0                427.14261919201  0                427.142617171791 
! Port Impedance  260.351077000776 0                260.351305832503 0                

26.779           -0.000153694367923326 108.33739243353  -43.5100071865383 -161.639951306695 -43.5100071865373 -161.639951306705 -0.000153569740164531 108.382660032926 
! Gamma  !      0                427.390351917811 0                427.390349898762 
! Port Impedance  260.287645504047 0                260.287874296228 0                

26.788           -0.000160997762875893 107.970332364288 -43.3658273950827 -162.006986814417 -43.3658273950817 -162.006986814428 -0.000160875197593631 108.015648305109 
! Gamma  !      0                427.638024331589 0                427.63802231371  
! Port Impedance  260.224324200511 0                260.224552953203 0                

26.797           -0.000168618661125687 107.602121850761 -43.2210753015815 -162.375172986074 -43.2210753015806 -162.375172986085 -0.000168498387547 107.647485830805 
! Gamma  !      0                427.885636538076 0                427.885634521365 
! Port Impedance  260.161112808366 0                260.161341521626 0                

26.806           -0.000176563086984157 107.23274318089  -43.0757456096949 -162.744527542064 -43.0757456096939 -162.744527542074 -0.000176445322321097 107.278154885188 
! Gamma  !      0                428.133188641734 0                428.133186626189 
! Port Impedance  260.098011046778 0                260.098239720663 0                

26.815           -0.000184837653703451 106.862178291801 -42.9298329491091 -163.115068553563 -42.9298329491082 -163.115068553573 -0.000184722603344988 106.9076373922   
! Gamma  !      0                428.380680746761 0                428.38067873238  
! Port Impedance  260.035018635878 0                260.035247270444 0                

26.824           -0.000193449587829487 106.490408760942 -42.783331874163 -163.4868144514  -42.7833318741621 -163.48681445141 -0.000193337445536311 106.535914915672 
! Gamma  !      0                428.628112957086 0                428.628110943869 
! Port Impedance  259.972135296758 0                259.972363892061 0                

26.833           -0.00020240675499919 106.117415796942 -42.6362368624429 -163.859784035212 -42.6362368624419 -163.859784035222 -0.000202297703090796 106.162968650168 
! Gamma  !      0                428.875485376376 0                428.87548336432  
! Port Impedance  259.909360751466 0                259.909589307563 0                

26.842           -0.000211717687233066 105.743180230189 -42.4885423133454 -164.233996482877 -42.4885423133445 -164.233996482887 -0.000211611896780622 105.788779411547 
! Gamma  !      0                429.122798108032 0                429.122796097135 
! Port Impedance  259.846694723004 0                259.846923239951 0                

26.851           -0.000221391611824414 105.367682503117 -42.3402425466077 -164.609471360242 -42.3402425466069 -164.609471360251 -0.000221289242836884 105.413327627237 
! Gamma  !      0                429.370051255192 0                429.370049245453 
! Port Impedance  259.784136935322 0                259.784365413174 0                

26.86            -0.000231438481924579 104.990902660185 -42.1913318008026 -164.986228631155 -42.1913318008018 -164.986228631164 -0.000231339683537729 105.036593326189 
! Gamma  !      0                429.617244920732 0                429.617242912149 
! Port Impedance  259.721687113312 0                259.721915552127 0                

26.869           -0.000241869008921689 104.61282033754  -42.0418042318001 -165.364288667813 -42.0418042317993 -165.364288667822 -0.000241773919588066 104.658556128533 
! Gamma  !      0                429.864379207268 0                429.86437719984  
! Port Impedance  259.65934498281  0                259.659573382643 0                

26.878           -0.000252694696752807 104.233414752362 -41.8916539111928 -165.74367226144 -41.891653911192 -165.743672261448 -0.000252603444423031 104.279195234895 
! Gamma  !      0                430.111454217153 0                430.111452210878 
! Port Impedance  259.597110270586 0                259.597338631493 0                

26.887           -0.000263927878209343 103.852664691855 -41.7408748246841 -166.124400633299 -41.7408748246832 -166.124400633308 -0.000263840580519188 103.898489415374 
! Gamma  !      0                430.358470052482 0                430.358468047359 
! Port Impedance  259.534982704342 0                259.535211026378 0                

26.896           -0.000275581753446062 103.470548501899 -41.5894608704392 -166.506495446064 -41.5894608704384 -166.506495446073 -0.000275498517891964 103.516416998173 
! Gamma  !      0                430.605426815092 0                430.605424811119 
! Port Impedance  259.472962012709 0                259.47319029593  0                

26.905           -0.000287670430728499 103.087044075326 -41.4374058573974 -166.889978815551 -41.4374058573967 -166.88997881556 -0.000287591354865243 103.132955857855 
! Gamma  !      0                430.85232460656  0                430.852322603735 
! Port Impedance  259.411047925241 0                259.411276169703 0                

26.914           -0.000300208969678298 102.702128839829 -41.2847035035443 -167.274873322831 -41.2847035035435 -167.27487332284 -0.000300134141287775 102.748083403229 
! Gamma  !      0                431.099163528208 0                431.09916152653  
! Port Impedance  259.349240172413 0                259.349468378171 0                

26.923           -0.000313213427064822 102.315779745461 -41.1313474341431 -167.661202026741 -41.1313474341423 -167.661202026749 -0.000313142924345036 102.361776564828 
! Gamma  !      0                431.345943681101 0                431.345941680568 
! Port Impedance  259.287538485616 0                259.287766652725 0                

26.932           -0.000326700905382321 101.927973251743 -40.9773311799248 -168.048988476797 -40.977331179924 -168.048988476805 -0.000326634797115184 101.97401178199  
! Gamma  !      0                431.592665166049 0                431.59266316666  
! Port Impedance  259.225942597153 0                259.226170725668 0                

26.941           -0.000340689604348794 101.538685314331 -40.822648175234 -168.438256726541 -40.8226481752333 -168.438256726548 -0.000340627950092985 101.584764989506 
! Gamma  !      0                431.839328083609 0                431.839326085362 
! Port Impedance  259.164452240235 0                259.164680330211 0                

26.95            -0.000355198875541743 101.147891371249 -40.6672917561318 -168.829031347322 -40.6672917561311 -168.829031347329 -0.000355141725800504 101.194011603828 
! Gamma  !      0                432.085932534081 0                432.085930536975 
! Port Impedance  259.103067148978 0                259.10329520047  0                

26.959           -0.000370249280351358 100.755566328667 -40.5112551584522 -169.221337442544 -40.5112551584515 -169.221337442551 -0.00037019667674993 100.801726508815 
! Gamma  !      0                432.332478617517 0                432.332476621549 
! Port Impedance  259.041787058398 0                259.042015071461 0                

26.968           -0.00038586265148567 100.361684546194 -40.3545315158119 -169.615200662382 -40.3545315158112 -169.615200662389 -0.000385814626950653 100.407884041003 
! Gamma  !      0                432.578966433713 0                432.578964438883 
! Port Impedance  258.980611704408 0                258.980839679096 0                

26.977           -0.000402062158245829 99.9662198216809 -40.1971138575733 -170.010647219004 -40.1971138575726 -170.01064721901 -0.000402018737179727 100.012457974379 
! Gamma  !      0                432.825396082217 0                432.825394088523 
! Port Impedance  258.919540823813 0                258.919768760182 0                

26.986           -0.000418872375835057 99.5691453755059 -40.0389951067566 -170.4077039023  -40.0389951067559 -170.407703902306 -0.000418833574278281 99.6154215046336 
! Gamma  !      0                433.071767662327 0                433.071765669766 
! Port Impedance  258.858574154309 0                258.858802052412 0                

26.995           -0.000436319358943582 99.1704338343238 -39.8801680779024 -170.806398096157 -39.8801680779017 -170.806398096163 -0.000436285184763459 99.2167472328853 
! Gamma  !      0                433.318081273089 0                433.318079281661 
! Port Impedance  258.797711434474 0                258.797939294366 0                

27.004           -0.000454430719922339 98.7700572142581 -39.7206254748818 -171.206757795283 -39.7206254748812 -171.206757795289 -0.000454401172978972 98.8164071488352 
! Gamma  !      0                433.564337013303 0                433.564335023006 
! Port Impedance  258.73695240377  0                258.737180225506 0                

27.013           -0.000473235711840859 98.3679869035126 -39.5603598886537 -171.60881162262 -39.560359888653 -171.608811622626 -0.000473210784152989 98.4143726133475 
